--- file type: CFG ---
SMARTSTATION,IED123,2013
8,4A,4D
1,IA ,,Line123, A,0.1138916015625,0.05694580078125,0,-32768,32767,933,1,s
2,IB ,,Line123, A,0.1138916015625,0.05694580078125,0,-32768,32767,933,1,s
3,IC ,,Line123, A,0.1138916015625,0.05694580078125,0,-32768,32767,933,1,s
4,3I0,,Line123, A,0.1138916015625,0.05694580078125,0,-32768,32767,933,1,s
1,51A,,Line123,0
2,51B,,Line123,0
3,51C,,Line123,0
4,51N,,Line123,0
50
1
1000,70
12/01/2011,05:55:30.075011
12/01/2011,05:55:30.078261
ASCII
1
-5h30,-5h30
B,3
--- file type: INF ---

--- file type: HDR ---

--- file type: DAT ASCII ---
1,72500,-83,68,7,-82,0,0,0,0
2,73500,-15,5,4,-114,0,0,0,0
3,74500,55,-53,0,-105,0,0,0,0
4,75500,122,-96,-2,-92,0,0,0,0
5,76500,182,-119,-7,-61,0,0,0,0
6,77500,228,-121,-11,-22,0,0,0,0
7,78500,260,-104,-14,22,0,0,0,0
8,79500,271,-68,-17,68,0,0,0,0
9,80500,260,-19,-18,110,0,0,0,0
10,81500,228,39,-19,148,0,0,0,0
11,82500,178,100,-19,177,0,0,0,1
12,83500,113,158,-16,190,0,0,0,1
13,84500,43,206,-12,187,0,0,0,1
14,85500,-30,236,-5,173,1,1,0,1
15,86500,-95,249,2,142,1,1,0,1
16,87500,-150,243,6,105,1,1,0,1
17,88500,-187,218,11,54,1,1,0,1
18,89500,-202,176,16,3,1,1,0,1
19,90500,-195,123,18,-42,1,1,0,1
20,91500,-165,61,19,-85,1,1,0,1
21,92500,-118,-2,17,-115,1,1,0,1
22,93500,-57,-61,13,-105,1,1,0,1
23,94500,10,-110,9,-92,1,1,0,1
24,95500,78,-144,4,-63,1,1,0,1
25,96500,138,-159,-2,-23,1,1,0,1
26,97500,187,-159,-7,21,1,1,0,1
27,98500,219,-139,-11,69,1,1,0,1
28,99500,230,-105,-14,111,1,1,0,1
29,100500,221,-56,-16,149,1,1,0,1
30,101500,191,2,-17,176,1,1,0,1
31,102500,143,61,-15,189,1,1,0,1
32,103500,83,118,-13,188,1,1,0,1
33,104500,17,165,-9,172,1,1,0,1
34,105500,-50,197,-4,144,1,1,0,1
35,106500,-111,212,2,103,1,1,0,1
36,107500,-161,209,6,53,1,1,0,1
37,108500,-195,187,11,4,1,1,0,1
38,109500,-208,149,15,-44,1,1,0,1
39,110500,-199,99,17,-83,1,1,0,1
40,111500,-169,41,18,-110,1,1,0,1
41,112500,-122,-15,16,-121,1,1,0,1
42,113500,-64,-66,14,-116,1,1,0,1
43,114500,0,-114,11,-96,1,1,0,1
44,115500,67,-146,7,-63,1,1,0,1
45,116500,127,-159,2,-20,1,1,0,1
46,117500,175,-152,-3,26,1,1,0,1
47,118500,209,-125,-8,67,1,1,0,1
48,119500,226,-84,-12,98,1,1,0,1
49,120500,225,-32,-15,120,1,1,0,1
50,121500,205,24,-17,130,1,1,0,1
51,122500,168,78,-17,128,1,1,0,1
52,123500,117,123,-15,115,0,0,0,0
53,124500,55,155,-12,92,0,0,0,0
54,125500,-9,172,-8,60,0,0,0,0
55,126500,-71,172,-3,22,0,0,0,0
56,127500,-128,154,2,-17,0,0,0,0
57,128500,-174,120,7,-54,0,0,0,0
58,129500,-205,73,11,-81,0,0,0,0
59,130500,-218,17,14,-96,0,0,0,0
60,131500,-211,-41,16,-97,0,0,0,0
61,132500,-184,-92,16,-84,0,0,0,0
62,133500,-138,-129,14,-59,0,0,0,0
63,134500,-78,-150,10,-24,0,0,0,0
64,135500,-10,-153,6,14,0,0,0,0
65,136500,59,-138,1,52,0,0,0,0
66,137500,122,-105,-4,82,0,0,0,0
67,138500,173,-57,-9,101,0,0,0,0
68,139500,209,2,-12,108,0,0,0,0
69,140500,227,63,-14,102,0,0,0,0
70,141500,225,121,-15,83,0,0,0,0